;删除本文件可以恢复默认值。
;这是SSCOM的设置保存文件,您在程序中设置好的串口参数和字符串数据都会自动保存,请最好不要用外部编辑器改动本文件!
;如果文件被修改后程序不能打开,请删除本文件,程序将会自动生成一个新的ini文件.
;靠行首的半角分号是注释符号
;每行都以回车结束

;"="后面的H表示这是个HEX数据串
;"="后面的A表示这是个ASC字符串
;Nx表示第几条定义的字符串(1<x<=N)
N101=1,0号继电器开启,100
N1=H,01 05 00 00 FF 00 8C 3A

N102=2,1号继电器开启,100
N2=H,01 05 00 01 FF 00 DD FA

N103=3,2号继电器开启,100
N3=H,01 05 00 02 FF 00 2D FA

N104=4,3号继电器开启,100
N4=H,01 05 00 03 FF 00 7C 3A

N105=5,4号继电器开启,100
N5=H,01 05 00 04 FF 00 CD FB

N106=6,5号继电器开启,100
N6=H,01 05 00 05 FF 00 9C 3B

N107=7,6号继电器开启,100
N7=H,01 05 00 06 FF 00 6C 3B

N108=8,7号继电器开启,1000
N8=H,01 05 00 07 FF 00 3D FB

N109=0,---------------------------,1000
N9=A,----------------------------------

N110=9,0号继电器关闭,100
N10=H,01 05 00 00 00 00 CD CA

N111=10,1号继电器关闭,100
N11=H,01 05 00 01 00 00 9C 0A

N112=11,2号继电器关闭,100
N12=H,01 05 00 02 00 00 6C 0A

N113=12,3号继电器关闭,100
N13=H,01 05 00 03 00 00 3D CA

N114=13,4号继电器关闭,100
N14=H,01 05 00 04 00 00 8C 0B

N115=14,5号继电器关闭,100
N15=H,01 05 00 05 00 00 DD CB

N116=15,6号继电器关闭,100
N16=H,01 05 00 06 00 00 2D CB

N117=16,7号继电器关闭,100
N17=H,01 05 00 07 00 00 7C 0B

N118=0,-----------------------------------------,1000
N18=A,---------------------------------

N119=17,读取所有继电器状态,1000
N19=H,01 01 00 00 00 08 3D CC

N120=0,---------------,1000
N20=A,全部开启才置1

N121=0,--------------------------------------------,1000
N21=A,---------------------------------

N122=0,22无注释,1000
N22=A,闪开指令：开启后马上关闭，100ms

N123=0,-------------------------------------,1000
N23=A,一个单位，即增加1表示增加100ms

N124=18,01地址0号闪开700ms,2000
N24=H,01 05 02 00 07 00 CE 42

N125=19,01地址1号闪开800ms,2000
N25=H,01 05 02 01 08 00 9A 72

N126=0,--------------,1000
N26=A,

N127=0,02地址0号闪开500ms,1000
N27=H,02 05 02 00 05 00 CF 11

N128=0,02地址1号闪开600ms,1000
N28=H,02 05 02 01 06 00 9E 21

N129=0,------------------------------------,1000
N29=A,---------------全局---------------

N130=21,全灭,1000
N30=H,01 0F 00 00 00 08 01 00 FE 95

N131=20,全亮,1000
N31=H,01 0F 00 00 00 08 01 FF BE D5

N132=0,-------------------------------,1000
N32=A,-----------单一翻转指令---------

N133=22,0--翻转,100
N33=H,01 05 00 00 55 00 F2 9A

N134=23,1--翻转,100
N34=H,01 05 00 01 55 00 A3 5A

N135=24,2--翻转,100
N35=H,01 05 00 02 55 00 53 5A

N136=25,3--翻转,100
N36=H,01 05 00 03 55 00 02 9A

N137=26,4--翻转,100
N37=H,01 05 00 04 55 00 B3 5B

N138=27,5--翻转,100
N38=H,01 05 00 05 55 00 E2 9B

N139=28,6--翻转,100
N39=H,01 05 00 06 55 00 12 9B

N140=29,7--翻转,1000
N40=H,01 05 00 07 55 00 43 5B

N141=0,--------------------------------------,1000
N41=A,-------------全部翻转------------

N142=30,全部翻转,1000
N42=H,01 05 00 00 5A 00 F7 6A

N143=0,----------------------------,1000
N43=A,--------------------------------

N144=0,-------------------------,1000
N44=A,------读取所有接口的输入状态---

N145=31,45无注释,1000
N45=H,01 02 00 00 00 08 79 CC

N146=0,----------------------,1000
N46=A,-------读取该模块的地址--------

N147=32,----------------,1000
N47=H,00 03 00 00 00 01 85 DB

N148=0,为地址01,1000
N48=A,返回00 03 02 00 01 44 44倒第三位

N149=0,-----------------------,1000
N49=A,-------修改改模块的地址--------

N150=0,设置地址为01,1000
N50=H,00 10 00 00 00 01 02 00 01 6A 00

N151=0,设置地址为02,1000
N51=H,00 10 00 00 00 01 02 00 02 2A 01

N152=0,设置地址为03,1000
N52=H,00 10 00 00 00 01 02 00 03 EB C1

N153=0,------------------------------------------------,1000
N53=A,

N154=0,----------------------------,1000
N54=A,

N155=0,---------------------------,1000
N55=A,

N156=0,设置地址为255,1000
N56=H,00 10 00 00 00 01 02 00 FF EB 80

N157=0,255的0号翻转,1000
N57=H,FF 05 00 00 55 00 E7 44

N158=0,255的1号翻转,1000
N58=H,FF 05 00 01 55 00 B6 84

N159=0,255的2号翻转,1000
N59=H,FF 05 00 02 55 00 46 84

N160=0,255的3号翻转,1000
N60=H,FF 05 00 03 55 00 17 44

N161=0,255的4号翻转,1000
N61=H,FF 05 00 04 55 00 A6 85

N162=0,255的5号翻转,1000
N62=H,FF 05 00 05 55 00 F7 45

N163=0,255的6号翻转,1000
N63=H,FF 05 00 06 55 00 07 45 

N164=0,255的7号翻转,1000
N64=H,FF 05 00 07 55 00 56 85

N165=0,65无注释,1000
N65=A,

N166=0,FF地址0号闪开700ms,1000
N66=H,FF 05 02 00 07 00 DB 9C

N167=0,FF地址的0号闪开10s,1000
N67=H,FF 05 02 00 64 00 F3 6C 

N168=0,25s,1000
N68=H,FF 05 02 00 FF 00 98 5C

N169=0,-,1000
N69=A,

N170=0,------------,1000
N70=A,

N171=0,-,1000
N71=A,

N172=0,波特率1200,1000
N72=H,01 B0 00 00 00 00 40 10 

N173=0,波特率2400,1000
N73=H,01 B0 00 00 01 00 41 80 

N174=0,波特率4800,1000
N74=H,01 B0 00 00 02 00 41 70

N175=0,波特率9600,1000
N75=H,01 B0 00 00 03 00 40 E0

N176=0,波特率19200,1000
N76=H,01 B0 00 00 04 00 42 D0

N177=0,波特率115200,1000
N77=H,01 B0 00 00 05 00 43 40

N178=0,--------------,1000
N78=A,

N179=33,01地址0号闪开700ms,300
N79=H,01 05 02 00 08 00 CB B2

N180=34,01地址1号闪开700ms,300
N80=H,01 05 02 01 08 00 9A 72

N181=35,01地址2号闪开700ms,300
N81=H,01 05 02 02 08 00 6A 72

N182=36,01地址3号闪开700ms,300
N82=H,01 05 02 03 08 00 3B B2

N183=37,01地址4号闪开700ms,300
N83=H,01 05 02 04 08 00 8A 73

N184=38,01地址5号闪开700ms,300
N84=H,01 05 02 05 08 00 DB B3

N185=39,01地址6号闪开700ms,300
N85=H,01 05 02 06 08 00 2B B3

N186=40,01地址7号闪开700ms,2000
N86=H,01 05 02 07 08 00 7A 73

N187=0,87无注释,1000
N87=A,

N188=0,88无注释,1000
N88=A,

N189=0,89无注释,1000
N89=A,

N190=0,90无注释,1000
N90=A,

N191=0,91无注释,1000
N91=A,

N192=0,92无注释,1000
N92=A,

N193=0,93无注释,1000
N93=A,

N194=0,94无注释,1000
N94=A,

N195=0,95无注释,1000
N95=A,

N196=0,96无注释,1000
N96=A,

N197=0,97无注释,1000
N97=A,

N198=0,98无注释,1000
N98=A,

N199=0,99无注释,1000
N99=A,

;发送文件时每256字节延时时间ms
N1051=,1
;打开文件地址和名称
N1052=,
;主面板ASC字符串
N1053=,abcdefg
;主面板HEX数据串
N1054=,01 05 00 00 5A 00 F7 6A
;主面板发送方式(ASC or HEX)
N1055=,H
;主面板字符串发送间隔时间ms
N1056=,500
;主面板字符串发送新行
N1057=,N
;多条字符串发送间隔时间ms
N1058=,2000
;接收窗口是否HEX显示方式
N1059=,Y
;校验方式,0=None，1=modbusCRC16，2=ADD，3=XOR
N1060=,0
;保存DTR:
N1061=,N
;保存RTS:
N1062=,N
;程序启动时是否打开串口
N1063=,N
;是否分包显示
N1064=,Y
;分包超时时间ms
N1065=,20
;接收窗背景颜色
N1066=,16777215
;显示缓冲上限,200K,500K,1M,2M,5M,10M,20M
N1067=,1000000
;远程IP地址
N1068=,120.76.28.211
;远程端口
N1069=,80
;本地端口
N1070=,777
;选择回车后发送行(带回显)
N1071=,N
;选择按键立即发送键值
N1072=,Y
;选择回显
N1073=,N
;第几字节至末尾加校验
N1074=,1
;至末尾倒数第几字节加校验,存第几个项目
N1075=,0
;终端仿真输入回车后是否自动加换行
N1076=,N
;当前串口号Port=COMX,网络模式):1=TCPCLIENT,2=TCPSERVER,3=UDP
N1080=,COM1
;波特率Band rate
N1081=,115200
;保存窗口宽度
N1082=,1051
;保存窗口高度
N1083=,1198
;保存窗口left
N1084=,207
;保存窗口top
N1085=,76
;分割线位置(右侧装多条自定义字符串的容器宽度)
N1086=,463
;多条发送按钮的宽度
N1087=,130
;保存窗口字体名称
N1088=,宋体
;保存窗口字体大小
N1089=,9
;保存窗口字体颜色
N1090=,0
;C:Chinese汉语,E:English
N1100=,汉语
;end